T15A0 245359:661 SEGGER J-Link V4.90 Log File (0000ms, 420890ms total)
T15A0 245359:661 DLL Compiled: Jul 28 2014 10:35:20 (0000ms, 420890ms total)
T15A0 245359:661 Logging started @ 2021-08-04 16:38 (0000ms, 420890ms total)
T15A0 245359:661 JLINK_SetWarnOutHandler(...) (0000ms, 420890ms total)
T15A0 245359:661 JLINK_OpenEx(...)
Firmware: J-Link V9 compiled Dec  2 2016 15:35:20
Hardware: V9.20
S/N: 269200585
Feature(s): GDB, RDI, FlashBP, FlashDL, JFlash, RDDIDevice "STM32F407VE" selected (512 KB flash, 128 KB RAM).  returns O.K. (0262ms, 421152ms total)
T15A0 245359:924 JLINK_GetEmuCaps()  returns 0xB9FF7BBF (0000ms, 421152ms total)
T15A0 245359:924 JLINK_TIF_GetAvailable(...) (0000ms, 421152ms total)
T15A0 245359:924 JLINK_SetErrorOutHandler(...) (0000ms, 421152ms total)
T15A0 245359:924 JLINK_ExecCommand("ProjectFile = "G:\Git\new-sentry\master\HAL-Version\MDK-ARM\JLinkSettings.ini"", ...)Device "STM32F407VE" selected (512 KB flash, 128 KB RAM).  returns 0x00 (0001ms, 421153ms total)
T15A0 245359:925 JLINK_ExecCommand("Device = STM32F407VETx", ...)Device "STM32F407VE" selected (512 KB flash, 128 KB RAM).  returns 0x00 (0001ms, 421154ms total)
T15A0 245359:926 JLINK_ExecCommand("DisableConnectionTimeout", ...)  returns 0x01 (0000ms, 421154ms total)
T15A0 245359:926 JLINK_GetHardwareVersion()  returns 0x16760 (0000ms, 421154ms total)
T15A0 245359:926 JLINK_GetDLLVersion()  returns 49000 (0000ms, 421154ms total)
T15A0 245359:926 JLINK_GetFirmwareString(...) (0000ms, 421154ms total)
T15A0 245359:926 JLINK_GetDLLVersion()  returns 49000 (0000ms, 421154ms total)
T15A0 245359:926 JLINK_GetCompileDateTime() (0000ms, 421154ms total)
T15A0 245359:926 JLINK_GetFirmwareString(...) (0000ms, 421154ms total)
T15A0 245359:926 JLINK_GetHardwareVersion()  returns 0x16760 (0000ms, 421154ms total)
T15A0 245359:926 JLINK_TIF_Select(JLINKARM_TIF_SWD)  returns 0x00 (0001ms, 421155ms total)
T15A0 245359:927 JLINK_SetSpeed(20000) (0000ms, 421155ms total)
T15A0 245359:927 JLINK_GetId() >0x108 TIF>Found SWD-DP with ID 0x2BA01477 >0x0D TIF> >0x28 TIF> >0x0D TIF> >0x28 TIF> >0x0D TIF> >0x21 TIF> >0x0D TIF> >0x28 TIF> >0x0D TIF> >0x28 TIF> >0x0D TIF> >0x28 TIF> >0x0D TIF> >0x21 TIF> >0x0D TIF> >0x21 TIF> >0x0D TIF> >0x28 TIF> >0x0D TIF> >0x21 TIF> >0x0D TIF> >0x21 TIF> >0x0D TIF> >0x28 TIF> >0x0D TIF> >0x21 TIF> >0x0D TIF> >0x21 TIF> >0x108 TIF>Found SWD-DP with ID 0x2BA01477 >0x0D TIF> >0x21 TIF> >0x0D TIF> >0x28 TIF> >0x0D TIF> >0x28 TIF> >0x0D TIF>
 >0x21 TIF> >0x0D TIF> >0x28 TIF> >0x0D TIF> >0x21 TIF> >0x0D TIF> >0x21 TIF> >0x0D TIF> >0x21 TIF> >0x0D TIF> >0x21 TIF> >0x0D TIF> >0x28 TIF> >0x0D TIF> >0x28 TIF> >0x0D TIF> >0x21 TIF> >0x0D TIF> >0x28 TIF> >0x0D TIF> >0x28 TIF> >0x0D TIF> >0x28 TIF> >0x0D TIF> >0x21 TIF> >0x0D TIF> >0x21 TIF> >0x0D TIF> >0x28 TIF> >0x0D TIF> >0x21 TIF> >0x0D TIF> >0x21 TIF>Found Cortex-M4 r0p1, Little endian. -- CPU_WriteMem(4 bytes @ 0xE0002000) -- CPU_ReadMem(4 bytes @ 0xE000EDF0)
 -- CPU_ReadMem(4 bytes @ 0xE0002000)FPUnit: 6 code (BP) slots and 2 literal slots -- CPU_ReadMem(4 bytes @ 0xE000EDFC) -- CPU_ReadMem(4 bytes @ 0xE0001000) -- CPU_WriteMem(4 bytes @ 0xE0001000) -- CPU_ReadMem(4 bytes @ 0xE00FF010)TPIU fitted. -- CPU_ReadMem(4 bytes @ 0xE00FF014)ETM fitted. -- CPU_ReadMem(4 bytes @ 0xE00FF018) >0x0D TIF> >0x21 TIF>  returns 0x2BA01477 (0014ms, 421169ms total)
T15A0 245359:941 JLINK_GetDLLVersion()  returns 49000 (0000ms, 421169ms total)
T15A0 245359:941 JLINK_CORE_GetFound()  returns 0xE0000FF (0000ms, 421169ms total)
T15A0 245359:941 JLINK_GetDebugInfo(0x100) -- Value=0xE00FF003  returns 0x00 (0000ms, 421169ms total)
T15A0 245359:941 JLINK_GetDebugInfo(0x101)  returns 0xFFFFFFFF (0000ms, 421169ms total)
T15A0 245359:941 JLINK_ReadMemEx(0xE0041FF0, 0x0010 Bytes, ..., AccessWidth = 33554436) -- CPU is running -- CPU_ReadMem(16 bytes @ 0xE0041FF0) - Data: 0D 00 00 00 90 00 00 00 05 00 00 00 B1 00 00 00  returns 0x10 (0001ms, 421170ms total)
T15A0 245359:942 JLINK_ReadMemEx(0xE0041FD0, 0x0020 Bytes, ..., AccessWidth = 33554436) -- CPU is running -- CPU_ReadMem(32 bytes @ 0xE0041FD0) - Data: 04 00 00 00 00 00 00 00 00 00 00 00 00 00 00 00 ...  returns 0x20 (0000ms, 421170ms total)
T15A0 245359:942 JLINK_GetDebugInfo(0x102)  returns 0xFFFFFFFF (0000ms, 421170ms total)
T15A0 245359:942 JLINK_GetDebugInfo(0x103)  returns 0xFFFFFFFF (0000ms, 421170ms total)
T15A0 245359:942 JLINK_ReadMemEx(0xE0040FF0, 0x0010 Bytes, ..., AccessWidth = 33554436) -- CPU is running -- CPU_ReadMem(16 bytes @ 0xE0040FF0) - Data: 0D 00 00 00 90 00 00 00 05 00 00 00 B1 00 00 00  returns 0x10 (0000ms, 421170ms total)
T15A0 245359:942 JLINK_GetDebugInfo(0x104)  returns 0xFFFFFFFF (0000ms, 421170ms total)
T15A0 245359:942 JLINK_GetDebugInfo(0x105)  returns 0xFFFFFFFF (0001ms, 421171ms total)
T15A0 245359:943 JLINK_GetDebugInfo(0x106)  returns 0xFFFFFFFF (0000ms, 421171ms total)
T15A0 245359:943 JLINK_GetDebugInfo(0x107)  returns 0xFFFFFFFF (0000ms, 421171ms total)
T15A0 245359:943 JLINK_GetDebugInfo(0x10C)  returns 0xFFFFFFFF (0000ms, 421171ms total)
T15A0 245359:943 JLINK_GetDebugInfo(0x01)  returns 0xFFFFFFFF (0000ms, 421171ms total)
T15A0 245359:943 JLINK_GetDeviceFamily()  returns 14 (0000ms, 421171ms total)
T15A0 245359:943 JLINK_ReadMemU32(0xE000ED00, 0x0001 Items, ...) -- CPU is running -- CPU_ReadMem(4 bytes @ 0xE000ED00) - Data: 41 C2 0F 41  returns 0x01 (0000ms, 421171ms total)
T15A0 245359:943 JLINK_GetDebugInfo(0x10F)  returns 0xFFFFFFFF (0000ms, 421171ms total)
T15A0 245359:943 JLINK_SetResetType(JLINKARM_RESET_TYPE_NORMAL)  returns JLINKARM_RESET_TYPE_NORMAL (0000ms, 421171ms total)
T15A0 245359:943 JLINK_Reset() -- CPU is running -- CPU_WriteMem(4 bytes @ 0xE000EDF0) -- CPU is running -- CPU_WriteMem(4 bytes @ 0xE000EDFC) >0x35 TIF> -- CPU is running -- CPU_WriteMem(4 bytes @ 0xE000ED0C) -- CPU is running -- CPU_ReadMem(4 bytes @ 0xE000EDF0) -- CPU is running -- CPU_ReadMem(4 bytes @ 0xE000EDF0) -- CPU is running -- CPU_WriteMem(4 bytes @ 0xE000EDF0) -- CPU is running -- CPU_WriteMem(4 bytes @ 0xE000EDFC) -- CPU is running -- CPU_ReadMem(4 bytes @ 0xE000EDF0)
 -- CPU_WriteMem(4 bytes @ 0xE0002000) -- CPU_ReadMem(4 bytes @ 0xE000EDFC) -- CPU_ReadMem(4 bytes @ 0xE0001000) (0014ms, 421185ms total)
T15A0 245359:957 JLINK_ReadReg(R15 (PC))  returns 0x0800025C (0000ms, 421185ms total)
T15A0 245359:957 JLINK_ReadReg(XPSR)  returns 0x01000000 (0000ms, 421185ms total)
T15A0 245359:957 JLINK_Halt()  returns 0x00 (0000ms, 421185ms total)
T15A0 245359:957 JLINK_ReadMemU32(0xE000EDF0, 0x0001 Items, ...) -- CPU_ReadMem(4 bytes @ 0xE000EDF0) - Data: 03 00 03 00  returns 0x01 (0000ms, 421185ms total)
T15A0 245359:957 JLINK_WriteU32(0xE000EDF0, 0xA05F0003) -- CPU_WriteMem(4 bytes @ 0xE000EDF0)  returns 0x00 (0001ms, 421186ms total)
T15A0 245359:958 JLINK_WriteU32(0xE000EDFC, 0x01000000) -- CPU_WriteMem(4 bytes @ 0xE000EDFC)  returns 0x00 (0000ms, 421186ms total)
T15A0 245359:958 JLINK_GetHWStatus(...)  returns 0x00 (0000ms, 421186ms total)
T15A0 245359:958 JLINK_GetNumBPUnits(Type = 0xFFFFFF00)  returns 0x06 (0000ms, 421186ms total)
T15A0 245359:958 JLINK_GetNumBPUnits(Type = 0xF0)  returns 0x2000 (0001ms, 421187ms total)
T15A0 245359:959 JLINK_GetNumWPUnits()  returns 0x04 (0000ms, 421187ms total)
T15A0 245359:959 JLINK_GetSpeed()  returns 0x2EE0 (0000ms, 421187ms total)
T15A0 245359:959 JLINK_ReadMemU32(0xE000E004, 0x0001 Items, ...) -- CPU_ReadMem(4 bytes @ 0xE000E004) - Data: 02 00 00 00  returns 0x01 (0000ms, 421187ms total)
T15A0 245359:959 JLINK_ReadMemU32(0xE000E004, 0x0001 Items, ...) -- CPU_ReadMem(4 bytes @ 0xE000E004) - Data: 02 00 00 00  returns 0x01 (0000ms, 421187ms total)
T15A0 245359:959 JLINK_WriteMemEx(0xE0001000, 0x001C Bytes, ..., AccessWidth = 33554436) - Data: 01 00 00 00 00 00 00 00 00 00 00 00 00 00 00 00 ... -- CPU_WriteMem(28 bytes @ 0xE0001000)  returns 0x1C (0000ms, 421187ms total)
T15A0 245359:960 JLINK_ReadReg(R15 (PC))  returns 0x0800025C (0000ms, 421187ms total)
T15A0 245359:960 JLINK_ReadReg(XPSR)  returns 0x01000000 (0000ms, 421187ms total)
T15A0 245359:972 JLINK_ReadMemEx(0xE0001004, 0x0004 Bytes, ..., AccessWidth = 33554432)Mis-aligned memory read: Address: 0xE0001004, NumBytes: 4, Alignment: 2 (Halfword-aligned)
  ***** Mis-aligned memory read: Address: 0xE0001004, NumBytes: 4, Alignment: 2 (Halfword-aligned) -- CPU_ReadMem(4 bytes @ 0xE0001004) - Data: 00 00 00 00  returns 0x04 (0001ms, 421188ms total)
T15A0 245360:130 JLINK_SetResetType(JLINKARM_RESET_TYPE_NORMAL)  returns JLINKARM_RESET_TYPE_NORMAL (0000ms, 421188ms total)
T15A0 245360:130 JLINK_Reset() -- CPU_WriteMem(4 bytes @ 0xE000EDF0) -- CPU_WriteMem(4 bytes @ 0xE000EDFC) >0x35 TIF> -- CPU_WriteMem(4 bytes @ 0xE000ED0C) -- CPU_ReadMem(4 bytes @ 0xE000EDF0) -- CPU_ReadMem(4 bytes @ 0xE000EDF0) -- CPU_WriteMem(4 bytes @ 0xE000EDF0) -- CPU_WriteMem(4 bytes @ 0xE000EDFC) -- CPU is running -- CPU_ReadMem(4 bytes @ 0xE000EDF0) -- CPU_WriteMem(4 bytes @ 0xE0002000) -- CPU_ReadMem(4 bytes @ 0xE000EDFC) -- CPU_ReadMem(4 bytes @ 0xE0001000) (0015ms, 421203ms total)
T15A0 245360:145 JLINK_ReadReg(R15 (PC))  returns 0x0800025C (0000ms, 421203ms total)
T15A0 245360:145 JLINK_ReadReg(XPSR)  returns 0x01000000 (0000ms, 421203ms total)
T15A0 245360:146 JLINK_ReadMemEx(0x0800025C, 0x003C Bytes, ..., AccessWidth = 33554432)Mis-aligned memory read: Address: 0x0800025C, NumBytes: 60, Alignment: 2 (Halfword-aligned)
  ***** Mis-aligned memory read: Address: 0x0800025C, NumBytes: 60, Alignment: 2 (Halfword-aligned) -- CPU_ReadMem(128 bytes @ 0x08000240) -- Updating C cache (128 bytes @ 0x08000240) -- Read from C cache (60 bytes @ 0x0800025C) - Data: 06 48 80 47 06 48 00 47 FE E7 FE E7 FE E7 FE E7 ...  returns 0x3C (0001ms, 421204ms total)
T15A0 245360:147 JLINK_ReadMemEx(0x0800025C, 0x0002 Bytes, ..., AccessWidth = 33554432)Mis-aligned memory read: Address: 0x0800025C, NumBytes: 2, Alignment: 2 (Halfword-aligned)
  ***** Mis-aligned memory read: Address: 0x0800025C, NumBytes: 2, Alignment: 2 (Halfword-aligned) -- Read from C cache (2 bytes @ 0x0800025C) - Data: 06 48  returns 0x02 (0000ms, 421204ms total)
T15A0 245360:147 JLINK_ReadMemEx(0x0800025E, 0x0002 Bytes, ..., AccessWidth = 33554432)Mis-aligned memory read: Address: 0x0800025E, NumBytes: 2, Alignment: 2 (Halfword-aligned)
  ***** Mis-aligned memory read: Address: 0x0800025E, NumBytes: 2, Alignment: 2 (Halfword-aligned) -- Read from C cache (2 bytes @ 0x0800025E) - Data: 80 47  returns 0x02 (0000ms, 421204ms total)
T15A0 245364:865 JLINK_ReadMemEx(0x0800025E, 0x0002 Bytes, ..., AccessWidth = 33554432)Mis-aligned memory read: Address: 0x0800025E, NumBytes: 2, Alignment: 2 (Halfword-aligned)
  ***** Mis-aligned memory read: Address: 0x0800025E, NumBytes: 2, Alignment: 2 (Halfword-aligned) -- Read from C cache (2 bytes @ 0x0800025E) - Data: 80 47  returns 0x02 (0000ms, 421204ms total)
T15A0 245364:865 JLINK_ReadMemEx(0x08000260, 0x003C Bytes, ..., AccessWidth = 33554432)Mis-aligned memory read: Address: 0x08000260, NumBytes: 60, Alignment: 2 (Halfword-aligned)
  ***** Mis-aligned memory read: Address: 0x08000260, NumBytes: 60, Alignment: 2 (Halfword-aligned) -- Read from C cache (60 bytes @ 0x08000260) - Data: 06 48 00 47 FE E7 FE E7 FE E7 FE E7 FE E7 FE E7 ...  returns 0x3C (0000ms, 421204ms total)
T15A0 245364:865 JLINK_ReadMemEx(0x08000260, 0x0002 Bytes, ..., AccessWidth = 33554432)Mis-aligned memory read: Address: 0x08000260, NumBytes: 2, Alignment: 2 (Halfword-aligned)
  ***** Mis-aligned memory read: Address: 0x08000260, NumBytes: 2, Alignment: 2 (Halfword-aligned) -- Read from C cache (2 bytes @ 0x08000260) - Data: 06 48  returns 0x02 (0000ms, 421204ms total)
T15A0 245365:868 JLINK_ReadReg(R0)  returns 0x00000000 (0001ms, 421205ms total)
T15A0 245365:869 JLINK_ReadReg(R1)  returns 0x00000000 (0000ms, 421205ms total)
T15A0 245365:869 JLINK_ReadReg(R2)  returns 0x00000000 (0000ms, 421205ms total)
T15A0 245365:869 JLINK_ReadReg(R3)  returns 0x00000000 (0000ms, 421205ms total)
T15A0 245365:869 JLINK_ReadReg(R4)  returns 0x00000000 (0000ms, 421205ms total)
T15A0 245365:869 JLINK_ReadReg(R5)  returns 0x00000000 (0000ms, 421205ms total)
T15A0 245365:869 JLINK_ReadReg(R6)  returns 0x00000000 (0000ms, 421205ms total)
T15A0 245365:869 JLINK_ReadReg(R7)  returns 0x00000000 (0000ms, 421205ms total)
T15A0 245365:869 JLINK_ReadReg(R8)  returns 0x00000000 (0000ms, 421205ms total)
T15A0 245365:869 JLINK_ReadReg(R9)  returns 0x00000000 (0000ms, 421205ms total)
T15A0 245365:869 JLINK_ReadReg(R10)  returns 0x00000000 (0000ms, 421205ms total)
T15A0 245365:869 JLINK_ReadReg(R11)  returns 0x00000000 (0000ms, 421205ms total)
T15A0 245365:869 JLINK_ReadReg(R12)  returns 0x00000000 (0000ms, 421205ms total)
T15A0 245365:869 JLINK_ReadReg(R13 (SP))  returns 0x20005DF8 (0000ms, 421205ms total)
T15A0 245365:869 JLINK_ReadReg(R14)  returns 0xFFFFFFFF (0000ms, 421205ms total)
T15A0 245365:869 JLINK_ReadReg(R15 (PC))  returns 0x0800025C (0000ms, 421205ms total)
T15A0 245365:869 JLINK_ReadReg(XPSR)  returns 0x01000000 (0000ms, 421205ms total)
T15A0 245365:869 JLINK_ReadReg(MSP)  returns 0x20005DF8 (0000ms, 421205ms total)
T15A0 245365:869 JLINK_ReadReg(PSP)  returns 0x00000000 (0000ms, 421205ms total)
T15A0 245365:869 JLINK_ReadReg(CFBP)  returns 0x00000000 (0000ms, 421205ms total)
T15A0 245365:869 JLINK_ReadReg(FPSCR)  returns 0x00000000 (0002ms, 421207ms total)
T15A0 245365:871 JLINK_ReadReg(FPS0)  returns 0x00000000 (0000ms, 421207ms total)
T15A0 245365:871 JLINK_ReadReg(FPS1)  returns 0x00000000 (0000ms, 421207ms total)
T15A0 245365:871 JLINK_ReadReg(FPS2)  returns 0x00000000 (0000ms, 421207ms total)
T15A0 245365:871 JLINK_ReadReg(FPS3)  returns 0x00000000 (0000ms, 421207ms total)
T15A0 245365:871 JLINK_ReadReg(FPS4)  returns 0x00000000 (0000ms, 421207ms total)
T15A0 245365:871 JLINK_ReadReg(FPS5)  returns 0x00000000 (0000ms, 421207ms total)
T15A0 245365:871 JLINK_ReadReg(FPS6)  returns 0x00000000 (0000ms, 421207ms total)
T15A0 245365:871 JLINK_ReadReg(FPS7)  returns 0x00000000 (0000ms, 421207ms total)
T15A0 245365:871 JLINK_ReadReg(FPS8)  returns 0x00000000 (0000ms, 421207ms total)
T15A0 245365:871 JLINK_ReadReg(FPS9)  returns 0x00000000 (0000ms, 421207ms total)
T15A0 245365:871 JLINK_ReadReg(FPS10)  returns 0x00000000 (0000ms, 421207ms total)
T15A0 245365:871 JLINK_ReadReg(FPS11)  returns 0x00000000 (0000ms, 421207ms total)
T15A0 245365:871 JLINK_ReadReg(FPS12)  returns 0x00000000 (0000ms, 421207ms total)
T15A0 245365:871 JLINK_ReadReg(FPS13)  returns 0x00000000 (0000ms, 421207ms total)
T15A0 245365:871 JLINK_ReadReg(FPS14)  returns 0x00000000 (0000ms, 421207ms total)
T15A0 245365:872 JLINK_ReadReg(FPS15)  returns 0x00000000 (0000ms, 421207ms total)
T15A0 245365:872 JLINK_ReadReg(FPS16)  returns 0x00000000 (0000ms, 421207ms total)
T15A0 245365:872 JLINK_ReadReg(FPS17)  returns 0x00000000 (0000ms, 421207ms total)
T15A0 245365:872 JLINK_ReadReg(FPS18)  returns 0x00000000 (0000ms, 421207ms total)
T15A0 245365:872 JLINK_ReadReg(FPS19)  returns 0x00000000 (0000ms, 421207ms total)
T15A0 245365:872 JLINK_ReadReg(FPS20)  returns 0x00000000 (0000ms, 421207ms total)
T15A0 245365:872 JLINK_ReadReg(FPS21)  returns 0x00000000 (0000ms, 421207ms total)
T15A0 245365:872 JLINK_ReadReg(FPS22)  returns 0x00000000 (0000ms, 421207ms total)
T15A0 245365:872 JLINK_ReadReg(FPS23)  returns 0x00000000 (0000ms, 421207ms total)
T15A0 245365:872 JLINK_ReadReg(FPS24)  returns 0x00000000 (0000ms, 421207ms total)
T15A0 245365:872 JLINK_ReadReg(FPS25)  returns 0x00000000 (0000ms, 421207ms total)
T15A0 245365:872 JLINK_ReadReg(FPS26)  returns 0x00000000 (0000ms, 421207ms total)
T15A0 245365:872 JLINK_ReadReg(FPS27)  returns 0x00000000 (0000ms, 421207ms total)
T15A0 245365:872 JLINK_ReadReg(FPS28)  returns 0x00000000 (0000ms, 421207ms total)
T15A0 245365:872 JLINK_ReadReg(FPS29)  returns 0x00000000 (0000ms, 421207ms total)
T15A0 245365:872 JLINK_ReadReg(FPS30)  returns 0x00000000 (0000ms, 421207ms total)
T15A0 245365:872 JLINK_ReadReg(FPS31)  returns 0x00000000 (0000ms, 421207ms total)
T15A0 245365:887 JLINK_ReadMemEx(0x2000004C, 0x0004 Bytes, ..., AccessWidth = 33554432)Mis-aligned memory read: Address: 0x2000004C, NumBytes: 4, Alignment: 2 (Halfword-aligned)
  ***** Mis-aligned memory read: Address: 0x2000004C, NumBytes: 4, Alignment: 2 (Halfword-aligned) -- CPU_ReadMem(64 bytes @ 0x20000040) -- Updating C cache (64 bytes @ 0x20000040) -- Read from C cache (4 bytes @ 0x2000004C) - Data: 6B F5 47 BF  returns 0x04 (0000ms, 421207ms total)
T15A0 245365:888 JLINK_ReadMemEx(0x2000004C, 0x0004 Bytes, ..., AccessWidth = 33554432)Mis-aligned memory read: Address: 0x2000004C, NumBytes: 4, Alignment: 2 (Halfword-aligned)
  ***** Mis-aligned memory read: Address: 0x2000004C, NumBytes: 4, Alignment: 2 (Halfword-aligned) -- Read from C cache (4 bytes @ 0x2000004C) - Data: 6B F5 47 BF  returns 0x04 (0000ms, 421207ms total)
T15A0 245365:888 JLINK_ReadMemEx(0x2000004C, 0x0004 Bytes, ..., AccessWidth = 33554432)Mis-aligned memory read: Address: 0x2000004C, NumBytes: 4, Alignment: 2 (Halfword-aligned)
  ***** Mis-aligned memory read: Address: 0x2000004C, NumBytes: 4, Alignment: 2 (Halfword-aligned) -- Read from C cache (4 bytes @ 0x2000004C) - Data: 6B F5 47 BF  returns 0x04 (0000ms, 421207ms total)
T15A0 245365:903 JLINK_ReadMemEx(0x200014C1, 0x0001 Bytes, ..., AccessWidth = 33554432)Mis-aligned memory read: Address: 0x200014C1, NumBytes: 1, Alignment: 2 (Halfword-aligned)
  ***** Mis-aligned memory read: Address: 0x200014C1, NumBytes: 1, Alignment: 2 (Halfword-aligned) -- CPU_ReadMem(64 bytes @ 0x200014C0) -- Updating C cache (64 bytes @ 0x200014C0) -- Read from C cache (1 bytes @ 0x200014C1) - Data: 00  returns 0x01 (0000ms, 421207ms total)
T15A0 245365:903 JLINK_ReadMemEx(0x200014C1, 0x0001 Bytes, ..., AccessWidth = 33554432)Mis-aligned memory read: Address: 0x200014C1, NumBytes: 1, Alignment: 2 (Halfword-aligned)
  ***** Mis-aligned memory read: Address: 0x200014C1, NumBytes: 1, Alignment: 2 (Halfword-aligned) -- Read from C cache (1 bytes @ 0x200014C1) - Data: 00  returns 0x01 (0000ms, 421207ms total)
T15A0 245365:903 JLINK_ReadMemEx(0x200014C1, 0x0001 Bytes, ..., AccessWidth = 33554432)Mis-aligned memory read: Address: 0x200014C1, NumBytes: 1, Alignment: 2 (Halfword-aligned)
  ***** Mis-aligned memory read: Address: 0x200014C1, NumBytes: 1, Alignment: 2 (Halfword-aligned) -- Read from C cache (1 bytes @ 0x200014C1) - Data: 00  returns 0x01 (0000ms, 421207ms total)
T0DCC 245366:126 JLINK_ReadMemEx(0x0800025C, 0x0002 Bytes, ..., AccessWidth = 33554432)Mis-aligned memory read: Address: 0x0800025C, NumBytes: 2, Alignment: 2 (Halfword-aligned)
  ***** Mis-aligned memory read: Address: 0x0800025C, NumBytes: 2, Alignment: 2 (Halfword-aligned) -- Read from C cache (2 bytes @ 0x0800025C) - Data: 06 48  returns 0x02 (0001ms, 421208ms total)
T0DCC 245366:127 JLINK_SetBPEx(Addr = 0x0800A014, Type = 0xFFFFFFF2)  returns 0x00000001 (0000ms, 421208ms total)
T0DCC 245366:127 JLINK_Go() -- CPU_WriteMem(4 bytes @ 0xE0002000) -- CPU_WriteMem(4 bytes @ 0xE0002008) -- CPU_WriteMem(4 bytes @ 0xE000200C) -- CPU_WriteMem(4 bytes @ 0xE0002010) -- CPU_WriteMem(4 bytes @ 0xE0002014) -- CPU_WriteMem(4 bytes @ 0xE0002018) -- CPU_WriteMem(4 bytes @ 0xE000201C) -- CPU_WriteMem(4 bytes @ 0xE0001004) (0002ms, 421210ms total)
T0DCC 245366:230 JLINK_IsHalted()  returns TRUE (0001ms, 421211ms total)
T0DCC 245366:231 JLINK_Halt()  returns 0x00 (0000ms, 421210ms total)
T0DCC 245366:231 JLINK_IsHalted()  returns TRUE (0000ms, 421210ms total)
T0DCC 245366:231 JLINK_IsHalted()  returns TRUE (0000ms, 421210ms total)
T0DCC 245366:231 JLINK_IsHalted()  returns TRUE (0000ms, 421210ms total)
T0DCC 245366:231 JLINK_ReadReg(R15 (PC))  returns 0x0800A014 (0000ms, 421210ms total)
T0DCC 245366:231 JLINK_ReadReg(XPSR)  returns 0x61000000 (0000ms, 421210ms total)
T0DCC 245366:231 JLINK_ClrBPEx(BPHandle = 0x00000001)  returns 0x00 (0000ms, 421210ms total)
T0DCC 245366:231 JLINK_ReadMemU32(0xE000ED30, 0x0001 Items, ...) -- CPU_ReadMem(4 bytes @ 0xE000ED30) - Data: 02 00 00 00  returns 0x01 (0000ms, 421210ms total)
T0DCC 245366:231 JLINK_ReadMemU32(0xE0001028, 0x0001 Items, ...) -- CPU_ReadMem(4 bytes @ 0xE0001028) - Data: 00 00 00 00  returns 0x01 (0001ms, 421211ms total)
T0DCC 245366:232 JLINK_ReadMemU32(0xE0001038, 0x0001 Items, ...) -- CPU_ReadMem(4 bytes @ 0xE0001038) - Data: 00 02 00 00  returns 0x01 (0000ms, 421211ms total)
T0DCC 245366:232 JLINK_ReadMemU32(0xE0001048, 0x0001 Items, ...) -- CPU_ReadMem(4 bytes @ 0xE0001048) - Data: 00 00 00 00  returns 0x01 (0000ms, 421211ms total)
T0DCC 245366:232 JLINK_ReadMemU32(0xE0001058, 0x0001 Items, ...) -- CPU_ReadMem(4 bytes @ 0xE0001058) - Data: 00 00 00 00  returns 0x01 (0001ms, 421212ms total)
T0DCC 245366:233 JLINK_ReadReg(R0)  returns 0x0800A015 (0000ms, 421212ms total)
T0DCC 245366:233 JLINK_ReadReg(R1)  returns 0x20005DF8 (0000ms, 421212ms total)
T0DCC 245366:233 JLINK_ReadReg(R2)  returns 0x00000000 (0000ms, 421212ms total)
T0DCC 245366:233 JLINK_ReadReg(R3)  returns 0x08007CA9 (0000ms, 421212ms total)
T0DCC 245366:233 JLINK_ReadReg(R4)  returns 0x080101B4 (0000ms, 421212ms total)
T0DCC 245366:233 JLINK_ReadReg(R5)  returns 0x080101B4 (0000ms, 421212ms total)
T0DCC 245366:233 JLINK_ReadReg(R6)  returns 0x00000000 (0000ms, 421212ms total)
T0DCC 245366:233 JLINK_ReadReg(R7)  returns 0x00000000 (0000ms, 421212ms total)
T0DCC 245366:233 JLINK_ReadReg(R8)  returns 0x00000000 (0000ms, 421212ms total)
T0DCC 245366:233 JLINK_ReadReg(R9)  returns 0x00000000 (0000ms, 421212ms total)
T0DCC 245366:233 JLINK_ReadReg(R10)  returns 0x00000000 (0000ms, 421212ms total)
T0DCC 245366:233 JLINK_ReadReg(R11)  returns 0x00000000 (0000ms, 421212ms total)
T0DCC 245366:233 JLINK_ReadReg(R12)  returns 0x00000000 (0000ms, 421212ms total)
T0DCC 245366:233 JLINK_ReadReg(R13 (SP))  returns 0x20005DF8 (0000ms, 421212ms total)
T0DCC 245366:233 JLINK_ReadReg(R14)  returns 0x08000895 (0000ms, 421212ms total)
T0DCC 245366:233 JLINK_ReadReg(R15 (PC))  returns 0x0800A014 (0000ms, 421212ms total)
T0DCC 245366:233 JLINK_ReadReg(XPSR)  returns 0x61000000 (0000ms, 421212ms total)
T0DCC 245366:233 JLINK_ReadReg(MSP)  returns 0x20005DF8 (0000ms, 421212ms total)
T0DCC 245366:233 JLINK_ReadReg(PSP)  returns 0x00000000 (0000ms, 421212ms total)
T0DCC 245366:233 JLINK_ReadReg(CFBP)  returns 0x00000000 (0000ms, 421212ms total)
T0DCC 245366:233 JLINK_ReadReg(FPSCR)  returns 0x00000000 (0002ms, 421214ms total)
T0DCC 245366:235 JLINK_ReadReg(FPS0)  returns 0x00000000 (0000ms, 421214ms total)
T0DCC 245366:235 JLINK_ReadReg(FPS1)  returns 0x00000000 (0000ms, 421214ms total)
T0DCC 245366:235 JLINK_ReadReg(FPS2)  returns 0x00000000 (0000ms, 421214ms total)
T0DCC 245366:235 JLINK_ReadReg(FPS3)  returns 0x00000000 (0001ms, 421215ms total)
T0DCC 245366:236 JLINK_ReadReg(FPS4)  returns 0x00000000 (0000ms, 421215ms total)
T0DCC 245366:236 JLINK_ReadReg(FPS5)  returns 0x00000000 (0000ms, 421215ms total)
T0DCC 245366:236 JLINK_ReadReg(FPS6)  returns 0x00000000 (0000ms, 421215ms total)
T0DCC 245366:236 JLINK_ReadReg(FPS7)  returns 0x00000000 (0000ms, 421215ms total)
T0DCC 245366:236 JLINK_ReadReg(FPS8)  returns 0x00000000 (0000ms, 421215ms total)
T0DCC 245366:236 JLINK_ReadReg(FPS9)  returns 0x00000000 (0000ms, 421215ms total)
T0DCC 245366:236 JLINK_ReadReg(FPS10)  returns 0x00000000 (0000ms, 421215ms total)
T0DCC 245366:236 JLINK_ReadReg(FPS11)  returns 0x00000000 (0000ms, 421215ms total)
T0DCC 245366:236 JLINK_ReadReg(FPS12)  returns 0x00000000 (0000ms, 421215ms total)
T0DCC 245366:236 JLINK_ReadReg(FPS13)  returns 0x00000000 (0000ms, 421215ms total)
T0DCC 245366:236 JLINK_ReadReg(FPS14)  returns 0x00000000 (0000ms, 421215ms total)
T0DCC 245366:236 JLINK_ReadReg(FPS15)  returns 0x00000000 (0000ms, 421215ms total)
T0DCC 245366:236 JLINK_ReadReg(FPS16)  returns 0x00000000 (0000ms, 421215ms total)
T0DCC 245366:236 JLINK_ReadReg(FPS17)  returns 0x00000000 (0000ms, 421215ms total)
T0DCC 245366:236 JLINK_ReadReg(FPS18)  returns 0x00000000 (0000ms, 421215ms total)
T0DCC 245366:236 JLINK_ReadReg(FPS19)  returns 0x00000000 (0000ms, 421215ms total)
T0DCC 245366:236 JLINK_ReadReg(FPS20)  returns 0x00000000 (0000ms, 421215ms total)
T0DCC 245366:236 JLINK_ReadReg(FPS21)  returns 0x00000000 (0000ms, 421215ms total)
T0DCC 245366:236 JLINK_ReadReg(FPS22)  returns 0x00000000 (0000ms, 421215ms total)
T0DCC 245366:236 JLINK_ReadReg(FPS23)  returns 0x00000000 (0000ms, 421215ms total)
T0DCC 245366:236 JLINK_ReadReg(FPS24)  returns 0x00000000 (0000ms, 421215ms total)
T0DCC 245366:236 JLINK_ReadReg(FPS25)  returns 0x00000000 (0000ms, 421215ms total)
T0DCC 245366:236 JLINK_ReadReg(FPS26)  returns 0x00000000 (0000ms, 421215ms total)
T0DCC 245366:236 JLINK_ReadReg(FPS27)  returns 0x00000000 (0000ms, 421215ms total)
T0DCC 245366:236 JLINK_ReadReg(FPS28)  returns 0x00000000 (0000ms, 421215ms total)
T0DCC 245366:236 JLINK_ReadReg(FPS29)  returns 0x00000000 (0000ms, 421215ms total)
T0DCC 245366:236 JLINK_ReadReg(FPS30)  returns 0x00000000 (0000ms, 421215ms total)
T0DCC 245366:236 JLINK_ReadReg(FPS31)  returns 0x00000000 (0000ms, 421215ms total)
T0DCC 245366:236 JLINK_ReadMemEx(0x200005E0, 0x0004 Bytes, ..., AccessWidth = 33554432)Mis-aligned memory read: Address: 0x200005E0, NumBytes: 4, Alignment: 2 (Halfword-aligned)
  ***** Mis-aligned memory read: Address: 0x200005E0, NumBytes: 4, Alignment: 2 (Halfword-aligned) -- CPU_ReadMem(64 bytes @ 0x200005C0) -- Updating C cache (64 bytes @ 0x200005C0) -- Read from C cache (4 bytes @ 0x200005E0) - Data: 00 00 00 00  returns 0x04 (0002ms, 421217ms total)
T15A0 245366:248 JLINK_ReadMemEx(0x2000004C, 0x0004 Bytes, ..., AccessWidth = 33554432)Mis-aligned memory read: Address: 0x2000004C, NumBytes: 4, Alignment: 2 (Halfword-aligned)
  ***** Mis-aligned memory read: Address: 0x2000004C, NumBytes: 4, Alignment: 2 (Halfword-aligned) -- CPU_ReadMem(64 bytes @ 0x20000040) -- Updating C cache (64 bytes @ 0x20000040) -- Read from C cache (4 bytes @ 0x2000004C) - Data: 00 00 00 00  returns 0x04 (0000ms, 421217ms total)
T15A0 245366:252 JLINK_ReadMemEx(0x200014C1, 0x0001 Bytes, ..., AccessWidth = 33554432)Mis-aligned memory read: Address: 0x200014C1, NumBytes: 1, Alignment: 2 (Halfword-aligned)
  ***** Mis-aligned memory read: Address: 0x200014C1, NumBytes: 1, Alignment: 2 (Halfword-aligned) -- CPU_ReadMem(64 bytes @ 0x200014C0) -- Updating C cache (64 bytes @ 0x200014C0) -- Read from C cache (1 bytes @ 0x200014C1) - Data: 00  returns 0x01 (0001ms, 421218ms total)
T15A0 245374:611 JLINK_SetResetType(JLINKARM_RESET_TYPE_NORMAL)  returns JLINKARM_RESET_TYPE_NORMAL (0000ms, 421218ms total)
T15A0 245374:611 JLINK_Reset() -- CPU_WriteMem(4 bytes @ 0xE000EDF0) -- CPU_WriteMem(4 bytes @ 0xE000EDFC) >0x35 TIF> -- CPU_WriteMem(4 bytes @ 0xE000ED0C) -- CPU_ReadMem(4 bytes @ 0xE000EDF0) -- CPU_ReadMem(4 bytes @ 0xE000EDF0) -- CPU_WriteMem(4 bytes @ 0xE000EDF0) -- CPU_WriteMem(4 bytes @ 0xE000EDFC) -- CPU is running -- CPU_ReadMem(4 bytes @ 0xE000EDF0) -- CPU_WriteMem(4 bytes @ 0xE0002000) -- CPU_ReadMem(4 bytes @ 0xE000EDFC) -- CPU_ReadMem(4 bytes @ 0xE0001000) (0014ms, 421232ms total)
T15A0 245374:625 JLINK_ReadReg(R15 (PC))  returns 0x0800025C (0001ms, 421233ms total)
T15A0 245374:626 JLINK_ReadReg(XPSR)  returns 0x01000000 (0000ms, 421233ms total)
T15A0 245374:626 JLINK_ReadMemEx(0x0800025C, 0x003C Bytes, ..., AccessWidth = 33554432)Mis-aligned memory read: Address: 0x0800025C, NumBytes: 60, Alignment: 2 (Halfword-aligned)
  ***** Mis-aligned memory read: Address: 0x0800025C, NumBytes: 60, Alignment: 2 (Halfword-aligned) -- CPU_ReadMem(128 bytes @ 0x08000240) -- Updating C cache (128 bytes @ 0x08000240) -- Read from C cache (60 bytes @ 0x0800025C) - Data: 06 48 80 47 06 48 00 47 FE E7 FE E7 FE E7 FE E7 ...  returns 0x3C (0001ms, 421234ms total)
T15A0 245374:627 JLINK_ReadMemEx(0x0800025C, 0x0002 Bytes, ..., AccessWidth = 33554432)Mis-aligned memory read: Address: 0x0800025C, NumBytes: 2, Alignment: 2 (Halfword-aligned)
  ***** Mis-aligned memory read: Address: 0x0800025C, NumBytes: 2, Alignment: 2 (Halfword-aligned) -- Read from C cache (2 bytes @ 0x0800025C) - Data: 06 48  returns 0x02 (0000ms, 421234ms total)
T15A0 245374:627 JLINK_ReadMemEx(0x0800025E, 0x0002 Bytes, ..., AccessWidth = 33554432)Mis-aligned memory read: Address: 0x0800025E, NumBytes: 2, Alignment: 2 (Halfword-aligned)
  ***** Mis-aligned memory read: Address: 0x0800025E, NumBytes: 2, Alignment: 2 (Halfword-aligned) -- Read from C cache (2 bytes @ 0x0800025E) - Data: 80 47  returns 0x02 (0000ms, 421234ms total)
T15A0 245375:187 JLINK_ReadReg(R0)  returns 0x00000000 (0000ms, 421234ms total)
T15A0 245375:187 JLINK_ReadReg(R1)  returns 0x00000000 (0000ms, 421234ms total)
T15A0 245375:187 JLINK_ReadReg(R2)  returns 0x00000000 (0000ms, 421234ms total)
T15A0 245375:187 JLINK_ReadReg(R3)  returns 0x00000000 (0000ms, 421234ms total)
T15A0 245375:187 JLINK_ReadReg(R4)  returns 0x00000000 (0000ms, 421234ms total)
T15A0 245375:187 JLINK_ReadReg(R5)  returns 0x00000000 (0000ms, 421234ms total)
T15A0 245375:187 JLINK_ReadReg(R6)  returns 0x00000000 (0000ms, 421234ms total)
T15A0 245375:187 JLINK_ReadReg(R7)  returns 0x00000000 (0000ms, 421234ms total)
T15A0 245375:187 JLINK_ReadReg(R8)  returns 0x00000000 (0000ms, 421234ms total)
T15A0 245375:187 JLINK_ReadReg(R9)  returns 0x00000000 (0000ms, 421234ms total)
T15A0 245375:187 JLINK_ReadReg(R10)  returns 0x00000000 (0000ms, 421234ms total)
T15A0 245375:187 JLINK_ReadReg(R11)  returns 0x00000000 (0000ms, 421234ms total)
T15A0 245375:187 JLINK_ReadReg(R12)  returns 0x00000000 (0000ms, 421234ms total)
T15A0 245375:187 JLINK_ReadReg(R13 (SP))  returns 0x20005DF8 (0000ms, 421234ms total)
T15A0 245375:187 JLINK_ReadReg(R14)  returns 0xFFFFFFFF (0000ms, 421234ms total)
T15A0 245375:187 JLINK_ReadReg(R15 (PC))  returns 0x0800025C (0000ms, 421234ms total)
T15A0 245375:187 JLINK_ReadReg(XPSR)  returns 0x01000000 (0001ms, 421235ms total)
T15A0 245375:188 JLINK_ReadReg(MSP)  returns 0x20005DF8 (0000ms, 421235ms total)
T15A0 245375:188 JLINK_ReadReg(PSP)  returns 0x00000000 (0000ms, 421235ms total)
T15A0 245375:188 JLINK_ReadReg(CFBP)  returns 0x00000000 (0000ms, 421235ms total)
T15A0 245375:188 JLINK_ReadReg(FPSCR)  returns 0x00000000 (0002ms, 421237ms total)
T15A0 245375:190 JLINK_ReadReg(FPS0)  returns 0x00000000 (0000ms, 421237ms total)
T15A0 245375:190 JLINK_ReadReg(FPS1)  returns 0x00000000 (0000ms, 421237ms total)
T15A0 245375:190 JLINK_ReadReg(FPS2)  returns 0x00000000 (0000ms, 421237ms total)
T15A0 245375:190 JLINK_ReadReg(FPS3)  returns 0x00000000 (0000ms, 421237ms total)
T15A0 245375:190 JLINK_ReadReg(FPS4)  returns 0x00000000 (0000ms, 421237ms total)
T15A0 245375:190 JLINK_ReadReg(FPS5)  returns 0x00000000 (0000ms, 421237ms total)
T15A0 245375:190 JLINK_ReadReg(FPS6)  returns 0x00000000 (0000ms, 421237ms total)
T15A0 245375:190 JLINK_ReadReg(FPS7)  returns 0x00000000 (0000ms, 421237ms total)
T15A0 245375:190 JLINK_ReadReg(FPS8)  returns 0x00000000 (0000ms, 421237ms total)
T15A0 245375:190 JLINK_ReadReg(FPS9)  returns 0x00000000 (0000ms, 421237ms total)
T15A0 245375:190 JLINK_ReadReg(FPS10)  returns 0x00000000 (0000ms, 421237ms total)
T15A0 245375:190 JLINK_ReadReg(FPS11)  returns 0x00000000 (0000ms, 421237ms total)
T15A0 245375:190 JLINK_ReadReg(FPS12)  returns 0x00000000 (0000ms, 421237ms total)
T15A0 245375:190 JLINK_ReadReg(FPS13)  returns 0x00000000 (0000ms, 421237ms total)
T15A0 245375:190 JLINK_ReadReg(FPS14)  returns 0x00000000 (0000ms, 421237ms total)
T15A0 245375:190 JLINK_ReadReg(FPS15)  returns 0x00000000 (0000ms, 421237ms total)
T15A0 245375:190 JLINK_ReadReg(FPS16)  returns 0x00000000 (0000ms, 421237ms total)
T15A0 245375:190 JLINK_ReadReg(FPS17)  returns 0x00000000 (0000ms, 421237ms total)
T15A0 245375:190 JLINK_ReadReg(FPS18)  returns 0x00000000 (0000ms, 421237ms total)
T15A0 245375:190 JLINK_ReadReg(FPS19)  returns 0x00000000 (0000ms, 421237ms total)
T15A0 245375:190 JLINK_ReadReg(FPS20)  returns 0x00000000 (0000ms, 421237ms total)
T15A0 245375:190 JLINK_ReadReg(FPS21)  returns 0x00000000 (0000ms, 421237ms total)
T15A0 245375:190 JLINK_ReadReg(FPS22)  returns 0x00000000 (0000ms, 421237ms total)
T15A0 245375:190 JLINK_ReadReg(FPS23)  returns 0x00000000 (0000ms, 421237ms total)
T15A0 245375:190 JLINK_ReadReg(FPS24)  returns 0x00000000 (0000ms, 421237ms total)
T15A0 245375:190 JLINK_ReadReg(FPS25)  returns 0x00000000 (0000ms, 421237ms total)
T15A0 245375:190 JLINK_ReadReg(FPS26)  returns 0x00000000 (0000ms, 421237ms total)
T15A0 245375:190 JLINK_ReadReg(FPS27)  returns 0x00000000 (0000ms, 421237ms total)
T15A0 245375:190 JLINK_ReadReg(FPS28)  returns 0x00000000 (0000ms, 421237ms total)
T15A0 245375:190 JLINK_ReadReg(FPS29)  returns 0x00000000 (0000ms, 421237ms total)
T15A0 245375:190 JLINK_ReadReg(FPS30)  returns 0x00000000 (0000ms, 421237ms total)
T15A0 245375:190 JLINK_ReadReg(FPS31)  returns 0x00000000 (0000ms, 421237ms total)
T15A0 245375:190 JLINK_ReadMemEx(0x2000004C, 0x0004 Bytes, ..., AccessWidth = 33554432)Mis-aligned memory read: Address: 0x2000004C, NumBytes: 4, Alignment: 2 (Halfword-aligned)
  ***** Mis-aligned memory read: Address: 0x2000004C, NumBytes: 4, Alignment: 2 (Halfword-aligned) -- CPU_ReadMem(64 bytes @ 0x20000040) -- Updating C cache (64 bytes @ 0x20000040) -- Read from C cache (4 bytes @ 0x2000004C) - Data: 00 00 00 00  returns 0x04 (0001ms, 421238ms total)
T15A0 245375:196 JLINK_ReadMemEx(0x200014C1, 0x0001 Bytes, ..., AccessWidth = 33554432)Mis-aligned memory read: Address: 0x200014C1, NumBytes: 1, Alignment: 2 (Halfword-aligned)
  ***** Mis-aligned memory read: Address: 0x200014C1, NumBytes: 1, Alignment: 2 (Halfword-aligned) -- CPU_ReadMem(64 bytes @ 0x200014C0) -- Updating C cache (64 bytes @ 0x200014C0) -- Read from C cache (1 bytes @ 0x200014C1) - Data: 00  returns 0x01 (0001ms, 421239ms total)
T15A0 245375:610 JLINK_SetResetType(JLINKARM_RESET_TYPE_NORMAL)  returns JLINKARM_RESET_TYPE_NORMAL (0000ms, 421239ms total)
T15A0 245375:610 JLINK_Reset() -- CPU_WriteMem(4 bytes @ 0xE000EDF0) -- CPU_WriteMem(4 bytes @ 0xE000EDFC) >0x35 TIF> -- CPU_WriteMem(4 bytes @ 0xE000ED0C) -- CPU_ReadMem(4 bytes @ 0xE000EDF0) -- CPU_ReadMem(4 bytes @ 0xE000EDF0) -- CPU_WriteMem(4 bytes @ 0xE000EDF0) -- CPU_WriteMem(4 bytes @ 0xE000EDFC) -- CPU is running -- CPU_ReadMem(4 bytes @ 0xE000EDF0) -- CPU_WriteMem(4 bytes @ 0xE0002000) -- CPU_ReadMem(4 bytes @ 0xE000EDFC) -- CPU_ReadMem(4 bytes @ 0xE0001000) (0016ms, 421255ms total)
T15A0 245375:626 JLINK_ReadReg(R15 (PC))  returns 0x0800025C (0000ms, 421255ms total)
T15A0 245375:626 JLINK_ReadReg(XPSR)  returns 0x01000000 (0001ms, 421256ms total)
T15A0 245375:647 JLINK_ReadReg(R0)  returns 0x00000000 (0000ms, 421256ms total)
T15A0 245375:647 JLINK_ReadReg(R1)  returns 0x00000000 (0000ms, 421256ms total)
T15A0 245375:647 JLINK_ReadReg(R2)  returns 0x00000000 (0000ms, 421256ms total)
T15A0 245375:647 JLINK_ReadReg(R3)  returns 0x00000000 (0000ms, 421256ms total)
T15A0 245375:647 JLINK_ReadReg(R4)  returns 0x00000000 (0000ms, 421256ms total)
T15A0 245375:647 JLINK_ReadReg(R5)  returns 0x00000000 (0000ms, 421256ms total)
T15A0 245375:647 JLINK_ReadReg(R6)  returns 0x00000000 (0000ms, 421256ms total)
T15A0 245375:647 JLINK_ReadReg(R7)  returns 0x00000000 (0000ms, 421256ms total)
T15A0 245375:647 JLINK_ReadReg(R8)  returns 0x00000000 (0000ms, 421256ms total)
T15A0 245375:647 JLINK_ReadReg(R9)  returns 0x00000000 (0000ms, 421256ms total)
T15A0 245375:647 JLINK_ReadReg(R10)  returns 0x00000000 (0000ms, 421256ms total)
T15A0 245375:647 JLINK_ReadReg(R11)  returns 0x00000000 (0000ms, 421256ms total)
T15A0 245375:647 JLINK_ReadReg(R12)  returns 0x00000000 (0000ms, 421256ms total)
T15A0 245375:647 JLINK_ReadReg(R13 (SP))  returns 0x20005DF8 (0000ms, 421256ms total)
T15A0 245375:647 JLINK_ReadReg(R14)  returns 0xFFFFFFFF (0000ms, 421256ms total)
T15A0 245375:647 JLINK_ReadReg(R15 (PC))  returns 0x0800025C (0000ms, 421256ms total)
T15A0 245375:647 JLINK_ReadReg(XPSR)  returns 0x01000000 (0000ms, 421256ms total)
T15A0 245375:647 JLINK_ReadReg(MSP)  returns 0x20005DF8 (0000ms, 421256ms total)
T15A0 245375:647 JLINK_ReadReg(PSP)  returns 0x00000000 (0000ms, 421256ms total)
T15A0 245375:647 JLINK_ReadReg(CFBP)  returns 0x00000000 (0000ms, 421256ms total)
T15A0 245375:647 JLINK_ReadReg(FPSCR)  returns 0x00000000 (0002ms, 421258ms total)
T15A0 245375:649 JLINK_ReadReg(FPS0)  returns 0x00000000 (0000ms, 421258ms total)
T15A0 245375:649 JLINK_ReadReg(FPS1)  returns 0x00000000 (0000ms, 421258ms total)
T15A0 245375:649 JLINK_ReadReg(FPS2)  returns 0x00000000 (0000ms, 421258ms total)
T15A0 245375:649 JLINK_ReadReg(FPS3)  returns 0x00000000 (0000ms, 421258ms total)
T15A0 245375:649 JLINK_ReadReg(FPS4)  returns 0x00000000 (0001ms, 421259ms total)
T15A0 245375:650 JLINK_ReadReg(FPS5)  returns 0x00000000 (0000ms, 421259ms total)
T15A0 245375:650 JLINK_ReadReg(FPS6)  returns 0x00000000 (0000ms, 421259ms total)
T15A0 245375:650 JLINK_ReadReg(FPS7)  returns 0x00000000 (0000ms, 421259ms total)
T15A0 245375:650 JLINK_ReadReg(FPS8)  returns 0x00000000 (0000ms, 421259ms total)
T15A0 245375:650 JLINK_ReadReg(FPS9)  returns 0x00000000 (0000ms, 421259ms total)
T15A0 245375:650 JLINK_ReadReg(FPS10)  returns 0x00000000 (0000ms, 421259ms total)
T15A0 245375:650 JLINK_ReadReg(FPS11)  returns 0x00000000 (0000ms, 421259ms total)
T15A0 245375:650 JLINK_ReadReg(FPS12)  returns 0x00000000 (0000ms, 421259ms total)
T15A0 245375:650 JLINK_ReadReg(FPS13)  returns 0x00000000 (0000ms, 421259ms total)
T15A0 245375:650 JLINK_ReadReg(FPS14)  returns 0x00000000 (0000ms, 421259ms total)
T15A0 245375:650 JLINK_ReadReg(FPS15)  returns 0x00000000 (0000ms, 421259ms total)
T15A0 245375:650 JLINK_ReadReg(FPS16)  returns 0x00000000 (0000ms, 421259ms total)
T15A0 245375:650 JLINK_ReadReg(FPS17)  returns 0x00000000 (0000ms, 421259ms total)
T15A0 245375:650 JLINK_ReadReg(FPS18)  returns 0x00000000 (0000ms, 421259ms total)
T15A0 245375:650 JLINK_ReadReg(FPS19)  returns 0x00000000 (0000ms, 421259ms total)
T15A0 245375:650 JLINK_ReadReg(FPS20)  returns 0x00000000 (0000ms, 421259ms total)
T15A0 245375:650 JLINK_ReadReg(FPS21)  returns 0x00000000 (0000ms, 421259ms total)
T15A0 245375:650 JLINK_ReadReg(FPS22)  returns 0x00000000 (0000ms, 421259ms total)
T15A0 245375:650 JLINK_ReadReg(FPS23)  returns 0x00000000 (0000ms, 421259ms total)
T15A0 245375:650 JLINK_ReadReg(FPS24)  returns 0x00000000 (0000ms, 421259ms total)
T15A0 245375:650 JLINK_ReadReg(FPS25)  returns 0x00000000 (0000ms, 421259ms total)
T15A0 245375:650 JLINK_ReadReg(FPS26)  returns 0x00000000 (0000ms, 421259ms total)
T15A0 245375:650 JLINK_ReadReg(FPS27)  returns 0x00000000 (0000ms, 421259ms total)
T15A0 245375:650 JLINK_ReadReg(FPS28)  returns 0x00000000 (0000ms, 421259ms total)
T15A0 245375:650 JLINK_ReadReg(FPS29)  returns 0x00000000 (0000ms, 421259ms total)
T15A0 245375:650 JLINK_ReadReg(FPS30)  returns 0x00000000 (0000ms, 421259ms total)
T15A0 245375:650 JLINK_ReadReg(FPS31)  returns 0x00000000 (0000ms, 421259ms total)
T15A0 245375:650 JLINK_ReadMemEx(0x2000004C, 0x0004 Bytes, ..., AccessWidth = 33554432)Mis-aligned memory read: Address: 0x2000004C, NumBytes: 4, Alignment: 2 (Halfword-aligned)
  ***** Mis-aligned memory read: Address: 0x2000004C, NumBytes: 4, Alignment: 2 (Halfword-aligned) -- CPU_ReadMem(64 bytes @ 0x20000040) -- Updating C cache (64 bytes @ 0x20000040) -- Read from C cache (4 bytes @ 0x2000004C) - Data: 00 00 00 00  returns 0x04 (0001ms, 421260ms total)
T15A0 245375:651 JLINK_ReadMemEx(0x200014C1, 0x0001 Bytes, ..., AccessWidth = 33554432)Mis-aligned memory read: Address: 0x200014C1, NumBytes: 1, Alignment: 2 (Halfword-aligned)
  ***** Mis-aligned memory read: Address: 0x200014C1, NumBytes: 1, Alignment: 2 (Halfword-aligned) -- CPU_ReadMem(64 bytes @ 0x200014C0) -- Updating C cache (64 bytes @ 0x200014C0) -- Read from C cache (1 bytes @ 0x200014C1) - Data: 00  returns 0x01 (0000ms, 421260ms total)
T15A0 245376:306 JLINK_SetResetType(JLINKARM_RESET_TYPE_NORMAL)  returns JLINKARM_RESET_TYPE_NORMAL (0000ms, 421260ms total)
T15A0 245376:306 JLINK_Reset() -- CPU_WriteMem(4 bytes @ 0xE000EDF0) -- CPU_WriteMem(4 bytes @ 0xE000EDFC) >0x35 TIF> -- CPU_WriteMem(4 bytes @ 0xE000ED0C) -- CPU_ReadMem(4 bytes @ 0xE000EDF0) -- CPU_ReadMem(4 bytes @ 0xE000EDF0) -- CPU_WriteMem(4 bytes @ 0xE000EDF0) -- CPU_WriteMem(4 bytes @ 0xE000EDFC) -- CPU is running -- CPU_ReadMem(4 bytes @ 0xE000EDF0) -- CPU_WriteMem(4 bytes @ 0xE0002000) -- CPU_ReadMem(4 bytes @ 0xE000EDFC) -- CPU_ReadMem(4 bytes @ 0xE0001000) (0014ms, 421274ms total)
T15A0 245376:320 JLINK_ReadReg(R15 (PC))  returns 0x0800025C (0000ms, 421274ms total)
T15A0 245376:320 JLINK_ReadReg(XPSR)  returns 0x01000000 (0000ms, 421274ms total)
T15A0 245376:340 JLINK_ReadReg(R0)  returns 0x00000000 (0000ms, 421274ms total)
T15A0 245376:340 JLINK_ReadReg(R1)  returns 0x00000000 (0000ms, 421274ms total)
T15A0 245376:340 JLINK_ReadReg(R2)  returns 0x00000000 (0000ms, 421274ms total)
T15A0 245376:340 JLINK_ReadReg(R3)  returns 0x00000000 (0000ms, 421274ms total)
T15A0 245376:340 JLINK_ReadReg(R4)  returns 0x00000000 (0000ms, 421274ms total)
T15A0 245376:340 JLINK_ReadReg(R5)  returns 0x00000000 (0000ms, 421274ms total)
T15A0 245376:340 JLINK_ReadReg(R6)  returns 0x00000000 (0000ms, 421274ms total)
T15A0 245376:340 JLINK_ReadReg(R7)  returns 0x00000000 (0000ms, 421274ms total)
T15A0 245376:340 JLINK_ReadReg(R8)  returns 0x00000000 (0000ms, 421274ms total)
T15A0 245376:340 JLINK_ReadReg(R9)  returns 0x00000000 (0000ms, 421274ms total)
T15A0 245376:340 JLINK_ReadReg(R10)  returns 0x00000000 (0000ms, 421274ms total)
T15A0 245376:340 JLINK_ReadReg(R11)  returns 0x00000000 (0000ms, 421274ms total)
T15A0 245376:340 JLINK_ReadReg(R12)  returns 0x00000000 (0000ms, 421274ms total)
T15A0 245376:340 JLINK_ReadReg(R13 (SP))  returns 0x20005DF8 (0000ms, 421274ms total)
T15A0 245376:340 JLINK_ReadReg(R14)  returns 0xFFFFFFFF (0000ms, 421274ms total)
T15A0 245376:340 JLINK_ReadReg(R15 (PC))  returns 0x0800025C (0000ms, 421274ms total)
T15A0 245376:340 JLINK_ReadReg(XPSR)  returns 0x01000000 (0000ms, 421274ms total)
T15A0 245376:340 JLINK_ReadReg(MSP)  returns 0x20005DF8 (0000ms, 421274ms total)
T15A0 245376:340 JLINK_ReadReg(PSP)  returns 0x00000000 (0000ms, 421274ms total)
T15A0 245376:340 JLINK_ReadReg(CFBP)  returns 0x00000000 (0000ms, 421274ms total)
T15A0 245376:340 JLINK_ReadReg(FPSCR)  returns 0x00000000 (0002ms, 421276ms total)
T15A0 245376:342 JLINK_ReadReg(FPS0)  returns 0x00000000 (0000ms, 421276ms total)
T15A0 245376:342 JLINK_ReadReg(FPS1)  returns 0x00000000 (0000ms, 421276ms total)
T15A0 245376:342 JLINK_ReadReg(FPS2)  returns 0x00000000 (0000ms, 421276ms total)
T15A0 245376:342 JLINK_ReadReg(FPS3)  returns 0x00000000 (0000ms, 421276ms total)
T15A0 245376:343 JLINK_ReadReg(FPS4)  returns 0x00000000 (0000ms, 421276ms total)
T15A0 245376:343 JLINK_ReadReg(FPS5)  returns 0x00000000 (0000ms, 421276ms total)
T15A0 245376:343 JLINK_ReadReg(FPS6)  returns 0x00000000 (0000ms, 421276ms total)
T15A0 245376:343 JLINK_ReadReg(FPS7)  returns 0x00000000 (0000ms, 421276ms total)
T15A0 245376:343 JLINK_ReadReg(FPS8)  returns 0x00000000 (0000ms, 421276ms total)
T15A0 245376:343 JLINK_ReadReg(FPS9)  returns 0x00000000 (0000ms, 421276ms total)
T15A0 245376:343 JLINK_ReadReg(FPS10)  returns 0x00000000 (0000ms, 421276ms total)
T15A0 245376:343 JLINK_ReadReg(FPS11)  returns 0x00000000 (0000ms, 421276ms total)
T15A0 245376:343 JLINK_ReadReg(FPS12)  returns 0x00000000 (0000ms, 421276ms total)
T15A0 245376:343 JLINK_ReadReg(FPS13)  returns 0x00000000 (0000ms, 421276ms total)
T15A0 245376:343 JLINK_ReadReg(FPS14)  returns 0x00000000 (0000ms, 421276ms total)
T15A0 245376:343 JLINK_ReadReg(FPS15)  returns 0x00000000 (0000ms, 421276ms total)
T15A0 245376:343 JLINK_ReadReg(FPS16)  returns 0x00000000 (0000ms, 421276ms total)
T15A0 245376:343 JLINK_ReadReg(FPS17)  returns 0x00000000 (0000ms, 421276ms total)
T15A0 245376:343 JLINK_ReadReg(FPS18)  returns 0x00000000 (0000ms, 421276ms total)
T15A0 245376:343 JLINK_ReadReg(FPS19)  returns 0x00000000 (0000ms, 421276ms total)
T15A0 245376:343 JLINK_ReadReg(FPS20)  returns 0x00000000 (0000ms, 421276ms total)
T15A0 245376:343 JLINK_ReadReg(FPS21)  returns 0x00000000 (0000ms, 421276ms total)
T15A0 245376:343 JLINK_ReadReg(FPS22)  returns 0x00000000 (0000ms, 421276ms total)
T15A0 245376:343 JLINK_ReadReg(FPS23)  returns 0x00000000 (0000ms, 421276ms total)
T15A0 245376:343 JLINK_ReadReg(FPS24)  returns 0x00000000 (0000ms, 421276ms total)
T15A0 245376:343 JLINK_ReadReg(FPS25)  returns 0x00000000 (0000ms, 421276ms total)
T15A0 245376:343 JLINK_ReadReg(FPS26)  returns 0x00000000 (0000ms, 421276ms total)
T15A0 245376:343 JLINK_ReadReg(FPS27)  returns 0x00000000 (0000ms, 421276ms total)
T15A0 245376:343 JLINK_ReadReg(FPS28)  returns 0x00000000 (0000ms, 421276ms total)
T15A0 245376:343 JLINK_ReadReg(FPS29)  returns 0x00000000 (0000ms, 421276ms total)
T15A0 245376:343 JLINK_ReadReg(FPS30)  returns 0x00000000 (0000ms, 421276ms total)
T15A0 245376:343 JLINK_ReadReg(FPS31)  returns 0x00000000 (0000ms, 421276ms total)
T15A0 245376:343 JLINK_ReadMemEx(0x2000004C, 0x0004 Bytes, ..., AccessWidth = 33554432)Mis-aligned memory read: Address: 0x2000004C, NumBytes: 4, Alignment: 2 (Halfword-aligned)
  ***** Mis-aligned memory read: Address: 0x2000004C, NumBytes: 4, Alignment: 2 (Halfword-aligned) -- CPU_ReadMem(64 bytes @ 0x20000040) -- Updating C cache (64 bytes @ 0x20000040) -- Read from C cache (4 bytes @ 0x2000004C) - Data: 00 00 00 00  returns 0x04 (0002ms, 421278ms total)
T15A0 245376:345 JLINK_ReadMemEx(0x200014C1, 0x0001 Bytes, ..., AccessWidth = 33554432)Mis-aligned memory read: Address: 0x200014C1, NumBytes: 1, Alignment: 2 (Halfword-aligned)
  ***** Mis-aligned memory read: Address: 0x200014C1, NumBytes: 1, Alignment: 2 (Halfword-aligned) -- CPU_ReadMem(64 bytes @ 0x200014C0) -- Updating C cache (64 bytes @ 0x200014C0) -- Read from C cache (1 bytes @ 0x200014C1) - Data: 00  returns 0x01 (0001ms, 421279ms total)
T15A0 245376:902 JLINK_SetResetType(JLINKARM_RESET_TYPE_NORMAL)  returns JLINKARM_RESET_TYPE_NORMAL (0000ms, 421279ms total)
T15A0 245376:902 JLINK_Reset() -- CPU_WriteMem(4 bytes @ 0xE000EDF0) -- CPU_WriteMem(4 bytes @ 0xE000EDFC) >0x35 TIF> -- CPU_WriteMem(4 bytes @ 0xE000ED0C) -- CPU_ReadMem(4 bytes @ 0xE000EDF0) -- CPU_ReadMem(4 bytes @ 0xE000EDF0) -- CPU_WriteMem(4 bytes @ 0xE000EDF0) -- CPU_WriteMem(4 bytes @ 0xE000EDFC) -- CPU is running -- CPU_ReadMem(4 bytes @ 0xE000EDF0) -- CPU_WriteMem(4 bytes @ 0xE0002000) -- CPU_ReadMem(4 bytes @ 0xE000EDFC) -- CPU_ReadMem(4 bytes @ 0xE0001000) (0017ms, 421296ms total)
T15A0 245376:919 JLINK_ReadReg(R15 (PC))  returns 0x0800025C (0000ms, 421296ms total)
T15A0 245376:919 JLINK_ReadReg(XPSR)  returns 0x01000000 (0000ms, 421296ms total)
T15A0 245376:936 JLINK_ReadReg(R0)  returns 0x00000000 (0000ms, 421296ms total)
T15A0 245376:936 JLINK_ReadReg(R1)  returns 0x00000000 (0000ms, 421296ms total)
T15A0 245376:936 JLINK_ReadReg(R2)  returns 0x00000000 (0000ms, 421296ms total)
T15A0 245376:936 JLINK_ReadReg(R3)  returns 0x00000000 (0000ms, 421296ms total)
T15A0 245376:936 JLINK_ReadReg(R4)  returns 0x00000000 (0000ms, 421296ms total)
T15A0 245376:936 JLINK_ReadReg(R5)  returns 0x00000000 (0000ms, 421296ms total)
T15A0 245376:936 JLINK_ReadReg(R6)  returns 0x00000000 (0000ms, 421296ms total)
T15A0 245376:936 JLINK_ReadReg(R7)  returns 0x00000000 (0000ms, 421296ms total)
T15A0 245376:936 JLINK_ReadReg(R8)  returns 0x00000000 (0000ms, 421296ms total)
T15A0 245376:936 JLINK_ReadReg(R9)  returns 0x00000000 (0000ms, 421296ms total)
T15A0 245376:936 JLINK_ReadReg(R10)  returns 0x00000000 (0000ms, 421296ms total)
T15A0 245376:936 JLINK_ReadReg(R11)  returns 0x00000000 (0000ms, 421296ms total)
T15A0 245376:936 JLINK_ReadReg(R12)  returns 0x00000000 (0000ms, 421296ms total)
T15A0 245376:936 JLINK_ReadReg(R13 (SP))  returns 0x20005DF8 (0000ms, 421296ms total)
T15A0 245376:936 JLINK_ReadReg(R14)  returns 0xFFFFFFFF (0000ms, 421296ms total)
T15A0 245376:936 JLINK_ReadReg(R15 (PC))  returns 0x0800025C (0000ms, 421296ms total)
T15A0 245376:936 JLINK_ReadReg(XPSR)  returns 0x01000000 (0000ms, 421296ms total)
T15A0 245376:936 JLINK_ReadReg(MSP)  returns 0x20005DF8 (0000ms, 421296ms total)
T15A0 245376:936 JLINK_ReadReg(PSP)  returns 0x00000000 (0000ms, 421296ms total)
T15A0 245376:936 JLINK_ReadReg(CFBP)  returns 0x00000000 (0000ms, 421296ms total)
T15A0 245376:936 JLINK_ReadReg(FPSCR)  returns 0x00000000 (0003ms, 421299ms total)
T15A0 245376:939 JLINK_ReadReg(FPS0)  returns 0x00000000 (0000ms, 421299ms total)
T15A0 245376:939 JLINK_ReadReg(FPS1)  returns 0x00000000 (0000ms, 421299ms total)
T15A0 245376:939 JLINK_ReadReg(FPS2)  returns 0x00000000 (0000ms, 421299ms total)
T15A0 245376:939 JLINK_ReadReg(FPS3)  returns 0x00000000 (0000ms, 421299ms total)
T15A0 245376:939 JLINK_ReadReg(FPS4)  returns 0x00000000 (0000ms, 421299ms total)
T15A0 245376:939 JLINK_ReadReg(FPS5)  returns 0x00000000 (0000ms, 421299ms total)
T15A0 245376:939 JLINK_ReadReg(FPS6)  returns 0x00000000 (0000ms, 421299ms total)
T15A0 245376:939 JLINK_ReadReg(FPS7)  returns 0x00000000 (0000ms, 421299ms total)
T15A0 245376:939 JLINK_ReadReg(FPS8)  returns 0x00000000 (0000ms, 421299ms total)
T15A0 245376:939 JLINK_ReadReg(FPS9)  returns 0x00000000 (0000ms, 421299ms total)
T15A0 245376:939 JLINK_ReadReg(FPS10)  returns 0x00000000 (0000ms, 421299ms total)
T15A0 245376:939 JLINK_ReadReg(FPS11)  returns 0x00000000 (0000ms, 421299ms total)
T15A0 245376:939 JLINK_ReadReg(FPS12)  returns 0x00000000 (0000ms, 421299ms total)
T15A0 245376:939 JLINK_ReadReg(FPS13)  returns 0x00000000 (0000ms, 421299ms total)
T15A0 245376:939 JLINK_ReadReg(FPS14)  returns 0x00000000 (0000ms, 421299ms total)
T15A0 245376:939 JLINK_ReadReg(FPS15)  returns 0x00000000 (0000ms, 421299ms total)
T15A0 245376:939 JLINK_ReadReg(FPS16)  returns 0x00000000 (0000ms, 421299ms total)
T15A0 245376:939 JLINK_ReadReg(FPS17)  returns 0x00000000 (0000ms, 421299ms total)
T15A0 245376:939 JLINK_ReadReg(FPS18)  returns 0x00000000 (0000ms, 421299ms total)
T15A0 245376:939 JLINK_ReadReg(FPS19)  returns 0x00000000 (0000ms, 421299ms total)
